Freq.	V(vout)
1.00000000000000e-03	(-1.45398814165313e+02dB,-1.68597560504757e-02°)
1.04712854805090e-03	(-1.44598814202993e+02dB,-1.76543318208726e-02°)
1.09647819614318e-03	(-1.43798814244309e+02dB,-1.84863547858288e-02°)
1.14815362149688e-03	(-1.42998814289611e+02dB,-1.93575897760949e-02°)
1.20226443461741e-03	(-1.42198814339284e+02dB,-2.02698847961601e-02°)
1.25892541179417e-03	(-1.41398814393749e+02dB,-2.12251749440854e-02°)
1.31825673855641e-03	(-1.40598814453469e+02dB,-2.22254865160675e-02°)
1.38038426460288e-03	(-1.39798814518950e+02dB,-2.32729413044412e-02°)
1.44543977074593e-03	(-1.38998814590749e+02dB,-2.43697610982350e-02°)
1.51356124843621e-03	(-1.38198814669475e+02dB,-2.55182723958263e-02°)
1.58489319246111e-03	(-1.37398814755796e+02dB,-2.67209113396899e-02°)
1.65958690743756e-03	(-1.36598814850445e+02dB,-2.79802288837071e-02°)
1.73780082874937e-03	(-1.35798814954226e+02dB,-2.92988962039938e-02°)
1.81970085860998e-03	(-1.34998815068020e+02dB,-3.06797103647228e-02°)
1.90546071796324e-03	(-1.34198815192792e+02dB,-3.21256002509575e-02°)
1.99526231496888e-03	(-1.33398815329602e+02dB,-3.36396327810773e-02°)
2.08929613085403e-03	(-1.32598815479611e+02dB,-3.52250194119716e-02°)
2.18776162394955e-03	(-1.31798815644093e+02dB,-3.68851229507965e-02°)
2.29086765276777e-03	(-1.30998815824443e+02dB,-3.86234646877399e-02°)
2.39883291901948e-03	(-1.30198816022194e+02dB,-4.04437318649206e-02°)
2.51188643150957e-03	(-1.29398816239023e+02dB,-4.23497854972607e-02°)
2.63026799189537e-03	(-1.28598816476771e+02dB,-4.43456685619126e-02°)
2.75422870333816e-03	(-1.27798816737457e+02dB,-4.64356145736096e-02°)
2.88403150312660e-03	(-1.26998817023293e+02dB,-4.86240565641193e-02°)
3.01995172040201e-03	(-1.26198817336707e+02dB,-5.09156364848412e-02°)
3.16227766016837e-03	(-1.25398817680357e+02dB,-5.33152150524826e-02°)
3.31131121482590e-03	(-1.24598818057163e+02dB,-5.58278820586874e-02°)
3.46736850452530e-03	(-1.23798818470322e+02dB,-5.84589671654743e-02°)
3.63078054770100e-03	(-1.22998818923342e+02dB,-6.12140512093700e-02°)
3.80189396320560e-03	(-1.22198819420068e+02dB,-6.40989780381982e-02°)
3.98107170553496e-03	(-1.21398819964718e+02dB,-6.71198669056173e-02°)
4.16869383470334e-03	(-1.20598820561914e+02dB,-7.02831254496741e-02°)
4.36515832240164e-03	(-1.19798821216727e+02dB,-7.35954632828823e-02°)
4.57088189614873e-03	(-1.18998821934714e+02dB,-7.70639062226236e-02°)
4.78630092322636e-03	(-1.18198822721972e+02dB,-8.06958111920279e-02°)
5.01187233627270e-03	(-1.17398823585182e+02dB,-8.44988818229028e-02°)
5.24807460249770e-03	(-1.16598824531674e+02dB,-8.84811847937686e-02°)
5.49540873857622e-03	(-1.15798825569481e+02dB,-9.26511669376086e-02°)
5.75439937337154e-03	(-1.14998826707413e+02dB,-9.70176731555710e-02°)
6.02559586074354e-03	(-1.14198827955131e+02dB,-1.01589965174555e-01°)
6.30957344480190e-03	(-1.13398829323226e+02dB,-1.06377741188406e-01°)
6.60693448007592e-03	(-1.12598830823312e+02dB,-1.11391156424293e-01°)
6.91830970918933e-03	(-1.11798832468122e+02dB,-1.16640844677808e-01°)
7.24435960074986e-03	(-1.10998834271620e+02dB,-1.22137940862360e-01°)
7.58577575029179e-03	(-1.10198836249116e+02dB,-1.27894104620569e-01°)
7.94328234724277e-03	(-1.09398838417396e+02dB,-1.33921545047607e-01°)
8.31763771102666e-03	(-1.08598840794866e+02dB,-1.40233046578769e-01°)
8.70963589956075e-03	(-1.07798843401709e+02dB,-1.46841996096006e-01°)
9.12010839355904e-03	(-1.06998846260053e+02dB,-1.53762411310693e-01°)
9.54992586021429e-03	(-1.06198849394164e+02dB,-1.61008970482612e-01°)
9.99999999999993e-03	(-1.05398852830644e+02dB,-1.68597043537906e-01°)
1.04712854805089e-02	(-1.04598856598667e+02dB,-1.76542724651680e-01°)
1.09647819614318e-02	(-1.03798860730219e+02dB,-1.84862866364016e-01°)
1.14815362149687e-02	(-1.02998865260370e+02dB,-1.93575115301334e-01°)
1.20226443461740e-02	(-1.02198870227576e+02dB,-2.02697949578392e-01°)
1.25892541179416e-02	(-1.01398875674003e+02dB,-2.12250717959715e-01°)
1.31825673855640e-02	(-1.00598881645884e+02dB,-2.22253680862871e-01°)
1.38038426460287e-02	(-9.97988881939109e+01dB,-2.32728053289860e-01°)
1.44543977074592e-02	(-9.89988953736682e+01dB,-2.43696049776824e-01°)
1.51356124843620e-02	(-9.81989032461015e+01dB,-2.55180931456482e-01°)
1.58489319246110e-02	(-9.73989118780362e+01dB,-2.67207055332002e-01°)
1.65958690743755e-02	(-9.65989213427444e+01dB,-2.79799925865573e-01°)
1.73780082874936e-02	(-9.57989317205662e+01dB,-2.92986248989641e-01°)
1.81970085860997e-02	(-9.49989430995923e+01dB,-3.06793988653724e-01°)
1.90546071796323e-02	(-9.41989555764115e+01dB,-3.21252426024819e-01°)
1.99526231496886e-02	(-9.33989692569295e+01dB,-3.36392221464801e-01°)
2.08929613085402e-02	(-9.25989842572686e+01dB,-3.52245479413730e-01°)
2.18776162394953e-02	(-9.17990007047524e+01dB,-3.68845816313818e-01°)
2.29086765276775e-02	(-9.09990187389866e+01dB,-3.86228431714804e-01°)
2.39883291901947e-02	(-9.01990385130433e+01dB,-4.04430182707742e-01°)
2.51188643150956e-02	(-8.93990601947594e+01dB,-4.23489661840720e-01°)
2.63026799189536e-02	(-8.85990839681614e+01dB,-4.43447278676739e-01°)
2.75422870333814e-02	(-8.77991100350253e+01dB,-4.64345345160986e-01°)
2.88403150312658e-02	(-8.69991386165895e+01dB,-4.86228164971944e-01°)
3.01995172040199e-02	(-8.61991699554304e+01dB,-5.09142127038274e-01°)
3.16227766016835e-02	(-8.53992043175205e+01dB,-5.33135803411078e-01°)
3.31131121482588e-02	(-8.45992419944836e+01dB,-5.58260051689138e-01°)
3.46736850452528e-02	(-8.37992833060683e+01dB,-5.84568122202871e-01°)
3.63078054770097e-02	(-8.29993286028584e+01dB,-6.12115770171158e-01°)
3.80189396320557e-02	(-8.21993782692461e+01dB,-6.40961373053758e-01°)
3.98107170553493e-02	(-8.13994327266900e+01dB,-6.71166053330855e-01°)
4.16869383470331e-02	(-8.05994924372877e+01dB,-7.02793806950162e-01°)
4.36515832240161e-02	(-7.97995579076917e+01dB,-7.35911637691123e-01°)
4.57088189614870e-02	(-7.89996296934026e+01dB,-7.70589697704876e-01°)
4.78630092322633e-02	(-7.81997084034755e+01dB,-8.06901434497890e-01°)
5.01187233627266e-02	(-7.73997947056784e+01dB,-8.44923744636348e-01°)
5.24807460249766e-02	(-7.65998893321475e+01dB,-8.84737134457518e-01°)
5.49540873857618e-02	(-7.57999930855854e+01dB,-9.26425888083318e-01°)
5.75439937337150e-02	(-7.50001068460561e+01dB,-9.70078243040020e-01°)
6.02559586074350e-02	(-7.42002315784309e+01dB,-1.01578657379650e+00°)
6.30957344480185e-02	(-7.34003683405519e+01dB,-1.06364758354118e+00°)
6.60693448007588e-02	(-7.26005182921761e+01dB,-1.11376250452547e+00°)
6.91830970918928e-02	(-7.18006827047802e+01dB,-1.16623730730744e+00°)
7.24435960074981e-02	(-7.10008629723038e+01dB,-1.22118291923560e+00°)
7.58577575029174e-02	(-7.02010606229226e+01dB,-1.27871545251638e+00°)
7.94328234724271e-02	(-6.94012773319495e+01dB,-1.33895644221188e+00°)
8.31763771102660e-02	(-6.86015149359691e+01dB,-1.40203309451532e+00°)
8.70963589956069e-02	(-6.78017754483248e+01dB,-1.46807854565019e+00°)
9.12010839355897e-02	(-6.70020610760852e+01dB,-1.53723213173522e+00°)
9.54992586021423e-02	(-6.62023742386290e+01dB,-1.60963966995009e+00°)
9.99999999999986e-02	(-6.54027175880029e+01dB,-1.68545375132601e+00°)
1.04712854805088e-01	(-6.46030940312171e+01dB,-1.76483404547013e+00°)
1.09647819614317e-01	(-6.38035067546631e+01dB,-1.84794761751216e+00°)
1.14815362149687e-01	(-6.30039592508478e+01dB,-1.93496925753560e+00°)
1.20226443461740e-01	(-6.22044553476658e+01dB,-2.02608182272241e+00°)
1.25892541179415e-01	(-6.14049992404413e+01dB,-2.12147659239838e+00°)
1.31825673855639e-01	(-6.06055955269976e+01dB,-2.22135363611586e+00°)
1.38038426460286e-01	(-5.98062492460354e+01dB,-2.32592219484829e+00°)
1.44543977074591e-01	(-5.90069659191205e+01dB,-2.43540107529685e+00°)
1.51356124843619e-01	(-5.82077515966134e+01dB,-2.55001905722012e+00°)
1.58489319246109e-01	(-5.74086129078978e+01dB,-2.67001531359220e+00°)
1.65958690743753e-01	(-5.66095571162971e+01dB,-2.79563984326955e+00°)
1.73780082874935e-01	(-5.58105921790988e+01dB,-2.92715391569967e+00°)
1.81970085860995e-01	(-5.50117268131417e+01dB,-3.06483052703253e+00°)
1.90546071796322e-01	(-5.42129705664581e+01dB,-3.20895486679441e+00°)
1.99526231496885e-01	(-5.34143338964991e+01dB,-3.35982479404995e+00°)
2.08929613085401e-01	(-5.26158282555140e+01dB,-3.51775132170683e+00°)
2.18776162394952e-01	(-5.18174661836961e+01dB,-3.68305910730347e+00°)
2.29086765276774e-01	(-5.10192614107487e+01dB,-3.85608694825897e+00°)
2.39883291901945e-01	(-5.02212289665748e+01dB,-4.03718827914795e+00°)
2.51188643150954e-01	(-4.94233853018346e+01dB,-4.22673166808611e+00°)
2.63026799189534e-01	(-4.86257484191646e+01dB,-4.42510130876679e+00°)
2.75422870333812e-01	(-4.78283380158945e+01dB,-4.63269750406602e+00°)
2.88403150312656e-01	(-4.70311756391460e+01dB,-4.84993713642540e+00°)
3.01995172040196e-01	(-4.62342848542348e+01dB,-5.07725411941891e+00°)
3.16227766016832e-01	(-4.54376914273363e+01dB,-5.31509982400057e+00°)
3.31131121482585e-01	(-4.46414235234071e+01dB,-5.56394347190553e+00°)
3.46736850452526e-01	(-4.38455119203755e+01dB,-5.82427248752526e+00°)
3.63078054770095e-01	(-4.30499902406273e+01dB,-6.09659279828849e+00°)
3.80189396320554e-01	(-4.22548952008110e+01dB,-6.38142907214138e+00°)
3.98107170553490e-01	(-4.14602668809644e+01dB,-6.67932487912437e+00°)
4.16869383470328e-01	(-4.06661490139233e+01dB,-6.99084276227905e+00°)
4.36515832240158e-01	(-3.98725892958997e+01dB,-7.31656420118136e+00°)
4.57088189614867e-01	(-3.90796397190133e+01dB,-7.65708944928128e+00°)
4.78630092322629e-01	(-3.82873569264102e+01dB,-8.01303722393764e+00°)
5.01187233627263e-01	(-3.74958025904063e+01dB,-8.38504422557247e+00°)
5.24807460249763e-01	(-3.67050438138379e+01dB,-8.77376445974878e+00°)
5.49540873857614e-01	(-3.59151535544723e+01dB,-9.17986833322100e+00°)
5.75439937337146e-01	(-3.51262110719251e+01dB,-9.60404149215452e+00°)
6.02559586074346e-01	(-3.43383023960319e+01dB,-1.00469833678102e+01°)
6.30957344480181e-01	(-3.35515208150056e+01dB,-1.05094053921127e+01°)
6.60693448007583e-01	(-3.27659673809931e+01dB,-1.09920288427566e+01°)
6.91830970918923e-01	(-3.19817514297673e+01dB,-1.14955822749758e+01°)
7.24435960074976e-01	(-3.11989911102911e+01dB,-1.20207984949533e+01°)
7.58577575029169e-01	(-3.04178139187086e+01dB,-1.25684110282673e+01°)
7.94328234724266e-01	(-2.96383572299883e+01dB,-1.31391500359838e+01°)
8.31763771102654e-01	(-2.88607688189260e+01dB,-1.37337376312702e+01°)
8.70963589956063e-01	(-2.80852073605324e+01dB,-1.43528825510419e+01°)
9.12010839355891e-01	(-2.73118428979920e+01dB,-1.49972741405045e+01°)
9.54992586021416e-01	(-2.65408572643869e+01dB,-1.56675756139176e+01°)
9.99999999999979e-01	(-2.57724444422974e+01dB,-1.63644165628978e+01°)
1.04712854805088e+00	(-2.50068108432373e+01dB,-1.70883846945443e+01°)
1.09647819614316e+00	(-2.42441754867592e+01dB,-1.78400167960347e+01°)
1.14815362149686e+00	(-2.34847700570422e+01dB,-1.86197889405089e+01°)
1.20226443461739e+00	(-2.27288388129848e+01dB,-1.94281059713650e+01°)
1.25892541179414e+00	(-2.19766383264127e+01dB,-2.02652903287270e+01°)
1.31825673855638e+00	(-2.12284370221394e+01dB,-2.11315703128550e+01°)
1.38038426460285e+00	(-2.04845144934840e+01dB,-2.20270679144230e+01°)
1.44543977074590e+00	(-1.97451605676675e+01dB,-2.29517863803675e+01°)
1.51356124843617e+00	(-1.90106740974888e+01dB,-2.39055977254826e+01°)
1.58489319246108e+00	(-1.82813614590258e+01dB,-2.48882304427730e+01°)
1.65958690743752e+00	(-1.75575347400098e+01dB,-2.58992577079081e+01°)
1.73780082874934e+00	(-1.68395096101016e+01dB,-2.69380864126482e+01°)
1.81970085860994e+00	(-1.61276028726121e+01dB,-2.80039473960533e+01°)
1.90546071796320e+00	(-1.54221297072142e+01dB,-2.90958872675021e+01°)
1.99526231496883e+00	(-1.47234006247006e+01dB,-3.02127622287411e+01°)
2.08929613085399e+00	(-1.40317181675362e+01dB,-3.13532343000571e+01°)
2.18776162394950e+00	(-1.33473734033357e+01dB,-3.25157703352966e+01°)
2.29086765276772e+00	(-1.26706422718358e+01dB,-3.36986441695912e+01°)
2.39883291901943e+00	(-1.20017818586405e+01dB,-3.48999421810800e+01°)
2.51188643150952e+00	(-1.13410266801339e+01dB,-3.61175724638417e+01°)
2.63026799189532e+00	(-1.06885850725756e+01dB,-3.73492777054817e+01°)
2.75422870333810e+00	(-1.00446357836557e+01dB,-3.85926517429854e+01°)
2.88403150312654e+00	(-9.40932486598639e+00dB,-3.98451596398978e+01°)
3.01995172040194e+00	(-8.78276296863020e+00dB,-4.11041609934779e+01°)
3.16227766016830e+00	(-8.16502311461938e+00dB,-4.23669360501030e+01°)
3.31131121482583e+00	(-7.55613903966199e+00dB,-4.36307140891742e+01°)
3.46736850452523e+00	(-6.95610415037354e+00dB,-4.48927034380813e+01°)
3.63078054770092e+00	(-6.36487114029305e+00dB,-4.61501224102633e+01°)
3.80189396320552e+00	(-5.78235227979922e+00dB,-4.74002304200759e+01°)
3.98107170553487e+00	(-5.20842037317036e+00dB,-4.86403585246709e+01°)
4.16869383470325e+00	(-4.64291035385402e+00dB,-4.98679386743452e+01°)
4.36515832240155e+00	(-4.08562146885476e+00dB,-5.10805310160994e+01°)
4.57088189614864e+00	(-3.53631998617042e+00dB,-5.22758486853065e+01°)
4.78630092322626e+00	(-2.99474234626570e+00dB,-5.34517796304469e+01°)
5.01187233627259e+00	(-2.46059867016018e+00dB,-5.46064051377016e+01°)
5.24807460249759e+00	(-1.93357653295507e+00dB,-5.57380148473632e+01°)
5.49540873857610e+00	(-1.41334491227228e+00dB,-5.68451181745416e+01°)
5.75439937337142e+00	(-8.99558225583961e-01dB,-5.79264521556138e+01°)
6.02559586074342e+00	(-3.91860377968906e-01dB,-5.89809858340511e+01°)
6.30957344480177e+00	(1.10111248486609e-01dB,-6.00079213712544e+01°)
6.60693448007579e+00	(6.06721921611989e-01dB,-6.10066921184684e+01°)
6.91830970918918e+00	(1.09833584936310e+00dB,-6.19769579151668e+01°)
7.24435960074971e+00	(1.58531266993920e+00dB,-6.29185978896494e+01°)
7.58577575029163e+00	(2.06800416940306e+00dB,-6.38317010323116e+01°)
7.94328234724260e+00	(2.54675124719232e+00dB,-6.47165547954773e+01°)
8.31763771102648e+00	(3.02188114476001e+00dB,-6.55736319505689e+01°)
8.70963589956057e+00	(3.49370494953259e+00dB,-6.64035759086123e+01°)
9.12010839355885e+00	(3.96251538524756e+00dB,-6.72071846882298e+01°)
9.54992586021410e+00	(4.42858490015690e+00dB,-6.79853937002911e+01°)
9.99999999999972e+00	(4.89216406603605e+00dB,-6.87392575133012e+01°)
1.04712854805087e+01	(5.35348030277169e+00dB,-6.94699307702018e+01°)
1.09647819614315e+01	(5.81273694480653e+00dB,-7.01786484459441e+01°)
1.14815362149685e+01	(6.27011266618899e+00dB,-7.08667056648754e+01°)
1.20226443461738e+01	(6.72576127975781e+00dB,-7.15354373349864e+01°)
1.25892541179413e+01	(7.17981192258643e+00dB,-7.21861978983988e+01°)
1.31825673855637e+01	(7.63236963391885e+00dB,-7.28203415389686e+01°)
1.38038426460285e+01	(8.08351632341191e+00dB,-7.34392032227447e+01°)
1.44543977074589e+01	(8.53331211682750e+00dB,-7.40440809693823e+01°)
1.51356124843616e+01	(8.98179705395197e+00dB,-7.46362197571621e+01°)
1.58489319246107e+01	(9.42899310030298e+00dB,-7.52167974470234e+01°)
1.65958690743751e+01	(9.87490642114299e+00dB,-7.57869130698378e+01°)
1.73780082874932e+01	(1.03195298545927e+01dB,-7.63475777562595e+01°)
1.81970085860993e+01	(1.07628455113197e+01dB,-7.68997085025128e+01°)
1.90546071796319e+01	(1.12048274223107e+01dB,-7.74441248634450e+01°)
1.99526231496882e+01	(1.16454441542874e+01dB,-7.79815485529390e+01°)
2.08929613085398e+01	(1.20846613146843e+01dB,-7.85126058193355e+01°)
2.18776162394949e+01	(1.25224438746887e+01dB,-7.90378323581447e+01°)
2.29086765276770e+01	(1.29587582491424e+01dB,-7.95576804336045e+01°)
2.39883291901942e+01	(1.33935740853182e+01dB,-8.00725278107225e+01°)
2.51188643150950e+01	(1.38268657276542e+01dB,-8.05826880543407e+01°)
2.63026799189530e+01	(1.42586133413273e+01dB,-8.10884217331684e+01°)
2.75422870333808e+01	(1.46888036929230e+01dB,-8.15899480738988e+01°)
2.88403150312652e+01	(1.51174306004525e+01dB,-8.20874566406763e+01°)
3.01995172040192e+01	(1.55444950767763e+01dB,-8.25811186638985e+01°)
3.16227766016828e+01	(1.59700051996413e+01dB,-8.30710977042709e+01°)
3.31131121482581e+01	(1.63939757477733e+01dB,-8.35575594075244e+01°)
3.46736850452521e+01	(1.68164276458377e+01dB,-8.40406801768089e+01°)
3.63078054770090e+01	(1.72373872618136e+01dB,-8.45206546588183e+01°)
3.80189396320549e+01	(1.76568855988222e+01dB,-8.49977020024378e+01°)
3.98107170553485e+01	(1.80749574201857e+01dB,-8.54720709025868e+01°)
4.16869383470322e+01	(1.84916403419819e+01dB,-8.59440434854645e+01°)
4.36515832240152e+01	(1.89069739220893e+01dB,-8.64139381241590e+01°)
4.57088189614860e+01	(1.93209987691378e+01dB,-8.68821112958931e+01°)
4.78630092322623e+01	(1.97337556892379e+01dB,-8.73489586050041e+01°)
5.00000000000000e+01	(2.01241205809361e+01dB,-8.77909328380707e+01°)
